(1653791095.941373) can1 09F8014F#A1B0A3EA5BDEFD67
(1653791095.941920) can1 09F8034F#B650070000160000
(1653791096.051516) can1 09F8014F#A1B0A3EA5BDEFD67
(1653791096.052637) can1 09F8034F#B6640600001B0000
(1653791096.141815) can1 09F8014F#A1B0A3EA5BDEFD67
(1653791096.142379) can1 09F8034F#B678160000110000
(1653791096.241339) can1 09F8014F#A1B0A3EA5BDEFD67
(1653791096.241900) can1 09F8034F#B68C0900001D0000
(1653791096.341334) can1 09F8014F#A1B0A3EA5BDEFD67
(1653791096.341898) can1 09F8034F#B6A0170000170000
(1653791096.441349) can1 09F8014F#A1B0A3EA5BDEFD67
(1653791096.441893) can1 09F8034F#B6B4160000210000
(1653791096.541944) can1 09F8014F#A1B0A3EA5CDEFD67
(1653791096.542490) can1 0DF8054F#802BC0C54A80E72E
(1653791096.543033) can1 0DF8054F#81058059D65852CF
(1653791096.543603) can1 0DF8054F#8206FB00329A4B05
(1653791096.544135) can1 0DF8054F#83633618B6D2B502
(1653791096.544714) can1 0DF8054F#840000000010FD08
(1653791096.545273) can1 0DF8054F#8564009C000D0C00
(1653791096.545848) can1 0DF8054F#860000FFFFFFFFFF
(1653791096.546996) can1 09F8034F#C000000000000000
(1653791096.641356) can1 09F8014F#A1B0A3EA5BDEFD67
(1653791096.641922) can1 09F8034F#C014070000F5FFFF
(1653791096.741322) can1 09F8014F#A1B0A3EA5BDEFD67
(1653791096.741878) can1 09F8034F#C0280D0000EEFFFF
(1653791096.841321) can1 09F8014F#A1B0A3EA5BDEFD67
(1653791096.841880) can1 09F8034F#C03C040000F6FFFF
(1653791096.941303) can1 09F8014F#A1B0A3EA5BDEFD67
(1653791096.941872) can1 09F8034F#C050F8FFFFEDFFFF
(1653791097.051531) can1 09F8014F#A0B0A3EA5BDEFD67
(1653791097.052673) can1 09F8034F#C064EFFFFFE8FFFF
(1653791097.141621) can1 09F8014F#A0B0A3EA5BDEFD67
(1653791097.142196) can1 09F8034F#C078E7FFFFF0FFFF
(1653791097.241293) can1 09F8014F#A0B0A3EA5BDEFD67
(1653791097.241861) can1 09F8034F#C08CEBFFFFDDFFFF
(1653791097.341347) can1 09F8014F#A0B0A3EA5ADEFD67
(1653791097.341896) can1 09F8034F#C0A0E9FFFFD3FFFF
(1653791097.441349) can1 09F8014F#A0B0A3EA5BDEFD67
(1653791097.441892) can1 09F8034F#C0B4DAFFFFDFFFFF
(1653791097.541878) can1 09F8014F#A0B0A3EA5BDEFD67
(1653791097.542426) can1 0DF8054F#A02BCAC54A900E2F
(1653791097.542985) can1 0DF8054F#A1058098FD2052CF
(1653791097.543530) can1 0DF8054F#A206FB008E010E05
(1653791097.544073) can1 0DF8054F#A3633618EFB7B502
(1653791097.544641) can1 0DF8054F#A40000000010FD08
(1653791097.545215) can1 0DF8054F#A564009C000D0C00
(1653791097.545784) can1 0DF8054F#A60000FFFFFFFFFF
(1653791097.546905) can1 09F8034F#CA00000000000000
(1653791097.641358) can1 09F8014F#9FB0A3EA5ADEFD67
(1653791097.641885) can1 09F8034F#CA14EDFFFFFCFFFF
(1653791097.741326) can1 09F8014F#9FB0A3EA5ADEFD67
(1653791097.741874) can1 09F8034F#CA28EFFFFFF2FFFF
(1653791097.841399) can1 09F8014F#A0B0A3EA5ADEFD67
(1653791097.841986) can1 09F8034F#CA3CF6FFFFEAFFFF
(1653791097.941288) can1 09F8014F#A0B0A3EA5ADEFD67
(1653791097.941849) can1 09F8034F#CA50F7FFFFE9FFFF
(1653791098.051539) can1 09F8014F#9FB0A3EA5ADEFD67
(1653791098.052653) can1 09F8034F#CA64F2FFFFEDFFFF
(1653791098.141298) can1 09F8014F#9FB0A3EA5ADEFD67
(1653791098.141854) can1 09F8034F#CA78ECFFFFE6FFFF
(1653791098.241321) can1 09F8014F#9FB0A3EA5ADEFD67
(1653791098.241852) can1 09F8034F#CA8CE0FFFFE2FFFF
(1653791098.341246) can1 09F8014F#9FB0A3EA5ADEFD67
(1653791098.341806) can1 09F8034F#CAA0DDFFFFE2FFFF
(1653791098.441253) can1 09F8014F#9FB0A3EA59DEFD67
(1653791098.441801) can1 09F8034F#CAB4E2FFFFD9FFFF
(1653791098.541821) can1 09F8014F#9FB0A3EA59DEFD67
(1653791098.542335) can1 0DF8054F#C02BD4C54AA0352F
(1653791098.542889) can1 0DF8054F#C10540D113D551CF
(1653791098.543452) can1 0DF8054F#C206FB00B540C504
(1653791098.543993) can1 0DF8054F#C3633618FBBFB502
(1653791098.544561) can1 0DF8054F#C40000000010FD08
(1653791098.545123) can1 0DF8054F#C564009C000D0C00
(1653791098.545693) can1 0DF8054F#C60000FFFFFFFFFF
(1653791098.546826) can1 09F8034F#D400000000000000
(1653791098.641228) can1 09F8014F#9FB0A3EA59DEFD67
(1653791098.641792) can1 09F8034F#D4140E0000F1FFFF
(1653791098.741221) can1 09F8014F#9FB0A3EA59DEFD67
(1653791098.741791) can1 09F8034F#D4280B0000F7FFFF
(1653791098.841227) can1 09F8014F#9FB0A3EA59DEFD67
(1653791098.841781) can1 09F8034F#D43C030000F5FFFF
(1653791098.941216) can1 09F8014F#9FB0A3EA59DEFD67
(1653791098.941790) can1 09F8034F#D450020000FFFFFF
(1653791099.051513) can1 09F8014F#9EB0A3EA59DEFD67
(1653791099.052668) can1 09F8034F#D464FFFFFF010000
(1653791099.141292) can1 09F8014F#9FB0A3EA59DEFD67
(1653791099.141805) can1 09F8034F#D478080000F2FFFF
(1653791099.241236) can1 09F8014F#9FB0A3EA59DEFD67
(1653791099.241796) can1 09F8034F#D48C170000F5FFFF
(1653791099.341277) can1 09F8014F#9FB0A3EA59DEFD67
(1653791099.341798) can1 09F8034F#D4A01C0000F4FFFF
(1653791099.441247) can1 09F8014F#9FB0A3EA59DEFD67
(1653791099.441811) can1 09F8034F#D4B4110000FCFFFF
(1653791099.541795) can1 09F8014F#9FB0A3EA59DEFD67
(1653791099.542323) can1 0DF8054F#E02BDEC54AB05C2F
(1653791099.542870) can1 0DF8054F#E10500054FF951CF
(1653791099.543430) can1 0DF8054F#E206FB00FC97BC04
(1653791099.543978) can1 0DF8054F#E3633618F4BEB502
(1653791099.544553) can1 0DF8054F#E40000000010FD08
(1653791099.545113) can1 0DF8054F#E564009C000D0C00
(1653791099.545695) can1 0DF8054F#E60000FFFFFFFFFF
(1653791099.546821) can1 09F8034F#DE00000000000000
(1653791099.641218) can1 09F8014F#9FB0A3EA59DEFD67
(1653791099.644277) can1 09F8034F#DE140200000B0000
(1653791099.741202) can1 09F8014F#9FB0A3EA5ADEFD67
(1653791099.743170) can1 09F8034F#DE280800000E0000
(1653791099.841184) can1 09F8014F#A0B0A3EA5ADEFD67
(1653791099.843031) can1 09F8034F#DE3C1800001D0000
(1653791099.941188) can1 09F8014F#A0B0A3EA5ADEFD67
(1653791099.941728) can1 09F8034F#DE50220000190000
(1653791100.051435) can1 09F8014F#A1B0A3EA5ADEFD67
(1653791100.052574) can1 09F8034F#DE64360000190000
(1653791100.141167) can1 09F8014F#A1B0A3EA5ADEFD67
(1653791100.141704) can1 09F8034F#DE784700001B0000
(1653791100.241141) can1 09F8014F#A1B0A3EA5ADEFD67
(1653791100.241698) can1 09F8034F#DE8C4B0000220000
(1653791100.341168) can1 09F8014F#A2B0A3EA5ADEFD67
(1653791100.341706) can1 09F8034F#DEA05C00001B0000
(1653791100.441161) can1 09F8014F#A2B0A3EA5ADEFD67
(1653791100.441689) can1 09F8034F#DEB4660000250000
(1653791100.541696) can1 09F8014F#A2B0A3EA5ADEFD67
(1653791100.542255) can1 0DF8054F#002BE8C54AC0832F
(1653791100.542810) can1 0DF8054F#0105805366A252CF
(1653791100.543368) can1 0DF8054F#0206FB001391EE04
(1653791100.543918) can1 0DF8054F#036336185F46B502
(1653791100.544496) can1 0DF8054F#040000000010FD08
(1653791100.545078) can1 0DF8054F#0564009C000D0C00
(1653791100.545625) can1 0DF8054F#060000FFFFFFFFFF
(1653791100.548400) can1 09F8034F#E800000000000000
(1653791100.641180) can1 09F8014F#A2B0A3EA5ADEFD67
(1653791100.641753) can1 09F8034F#E814FDFFFF050000
(1653791100.741214) can1 09F8014F#A2B0A3EA5ADEFD67
(1653791100.741728) can1 09F8034F#E8280F00000B0000
(1653791100.841153) can1 09F8014F#A2B0A3EA5ADEFD67
(1653791100.841730) can1 09F8034F#E83C0B00000F0000
(1653791100.941244) can1 09F8014F#A2B0A3EA5ADEFD67
(1653791100.941725) can1 09F8034F#E850090000120000
(1653791101.051419) can1 09F8014F#A2B0A3EA5ADEFD67
(1653791101.052555) can1 09F8034F#E8640C00000A0000
(1653791101.141133) can1 09F8014F#A2B0A3EA5ADEFD67
(1653791101.141668) can1 09F8034F#E8780A0000050000
(1653791101.241092) can1 09F8014F#A2B0A3EA5BDEFD67
(1653791101.241652) can1 09F8034F#E88CFDFFFF140000
(1653791101.341102) can1 09F8014F#A2B0A3EA5BDEFD67
(1653791101.341655) can1 09F8034F#E8A0FCFFFF1D0000
(1653791101.441080) can1 09F8014F#A2B0A3EA5BDEFD67
(1653791101.441640) can1 09F8034F#E8B4F8FFFF130000
(1653791101.541633) can1 09F8014F#A1B0A3EA5BDEFD67
(1653791101.542180) can1 0DF8054F#202BF2C54AD0AA2F
(1653791101.542728) can1 0DF8054F#210500EDB88352CF
(1653791101.543879) can1 0DF8054F#2206FB00BD0F1F05
(1653791101.544438) can1 0DF8054F#2363361822BCB402
(1653791101.545012) can1 0DF8054F#240000000010FD08
(1653791101.545574) can1 0DF8054F#2564009C000D0C00
(1653791101.546134) can1 0DF8054F#260000FFFFFFFFFF
(1653791101.547266) can1 09F8034F#F200000000000000
(1653791101.641071) can1 09F8014F#A1B0A3EA5BDEFD67
(1653791101.641639) can1 09F8034F#F214F9FFFFFFFFFF
(1653791101.741073) can1 09F8014F#A1B0A3EA5BDEFD67
(1653791101.741631) can1 09F8034F#F228F9FFFFFAFFFF
(1653791101.841102) can1 09F8014F#A1B0A3EA5BDEFD67
(1653791101.841672) can1 09F8034F#F23CE8FFFF020000
(1653791101.941187) can1 09F8014F#A1B0A3EA5BDEFD67
(1653791101.941673) can1 09F8034F#F250E8FFFF030000
(1653791102.051438) can1 09F8014F#A1B0A3EA5BDEFD67
(1653791102.052567) can1 09F8034F#F264EFFFFF000000
(1653791102.141158) can1 09F8014F#A1B0A3EA5BDEFD67
(1653791102.141659) can1 09F8034F#F278EEFFFF000000
(1653791102.241080) can1 09F8014F#A1B0A3EA5BDEFD67
(1653791102.241659) can1 09F8034F#F28CEDFFFF030000
(1653791102.341145) can1 09F8014F#A1B0A3EA5BDEFD67
(1653791102.341654) can1 09F8034F#F2A0F6FFFFFFFFFF
(1653791102.441087) can1 09F8014F#A1B0A3EA5BDEFD67
(1653791102.441627) can1 09F8034F#F2B4F9FFFFFCFFFF
(1653791102.541594) can1 09F8014F#A1B0A3EA5BDEFD67
(1653791102.542147) can1 0DF8054F#402BFCC54AE0D12F
(1653791102.542699) can1 0DF8054F#41050011C48152CF
(1653791102.543264) can1 0DF8054F#4206FB0026631605
(1653791102.543807) can1 0DF8054F#436336185BA2B402
(1653791102.544379) can1 0DF8054F#440000000010FD08
(1653791102.544933) can1 0DF8054F#4564009C000D0C00
(1653791102.545512) can1 0DF8054F#460000FFFFFFFFFF
(1653791102.546638) can1 09F8034F#FC00000000000000
(1653791102.641263) can1 09F8014F#A2B0A3EA5BDEFD67
(1653791102.641831) can1 09F8034F#FC14080000030000
(1653791102.741016) can1 09F8014F#A2B0A3EA5BDEFD67
(1653791102.741592) can1 09F8034F#FC280E0000070000
(1653791102.841021) can1 09F8014F#A2B0A3EA5ADEFD67
(1653791102.841583) can1 09F8034F#FC3C1B0000F7FFFF
(1653791102.941006) can1 09F8014F#A2B0A3EA5BDEFD67
(1653791102.941578) can1 09F8034F#FC50140000FFFFFF
(1653791103.051001) can1 09F8014F#A2B0A3EA5BDEFD67
(1653791103.052143) can1 09F8034F#FC641D0000FBFFFF
(1653791103.141000) can1 09F8014F#A2B0A3EA5ADEFD67
(1653791103.141573) can1 09F8034F#FC78210000E7FFFF
(1653791103.241036) can1 09F8014F#A3B0A3EA5ADEFD67
(1653791103.241600) can1 09F8034F#FC8C2E0000EBFFFF
(1653791103.341032) can1 09F8014F#A3B0A3EA5ADEFD67
(1653791103.341595) can1 09F8034F#FCA0370000F2FFFF
(1653791103.441029) can1 09F8014F#A3B0A3EA5ADEFD67
(1653791103.441590) can1 09F8034F#FCB43F0000E4FFFF
(1653791103.541597) can1 09F8014F#A4B0A3EA5ADEFD67
(1653791103.542145) can1 0DF8054F#602B09C54AF0F82F
(1653791103.542693) can1 0DF8054F#61054088C4FE52CF
(1653791103.543247) can1 0DF8054F#6206FB00EAECDC04
(1653791103.543787) can1 0DF8054F#6363361842D4B402
(1653791103.544355) can1 0DF8054F#640000000010FD08
(1653791103.544914) can1 0DF8054F#6564009C000D0C00
(1653791103.545492) can1 0DF8054F#660000FFFFFFFFFF
(1653791103.546636) can1 09F8034F#0900000000000000
(1653791103.641015) can1 09F8014F#A4B0A3EA5ADEFD67
(1653791103.641599) can1 09F8034F#09140A0000FCFFFF
(1653791103.741015) can1 09F8014F#A4B0A3EA59DEFD67
(1653791103.741615) can1 09F8034F#0928200000F4FFFF
(1653791103.840971) can1 09F8014F#A4B0A3EA5ADEFD67
(1653791103.841540) can1 09F8034F#093C0D0000FFFFFF
(1653791103.940959) can1 09F8014F#A4B0A3EA5ADEFD67
(1653791103.941526) can1 09F8034F#09500E0000080000
(1653791104.051358) can1 09F8014F#A5B0A3EA59DEFD67
(1653791104.052506) can1 09F8034F#0964260000F8FFFF
(1653791104.140945) can1 09F8014F#A5B0A3EA59DEFD67
(1653791104.141521) can1 09F8034F#0978340000E8FFFF
(1653791104.241157) can1 09F8014F#A5B0A3EA59DEFD67
(1653791104.241722) can1 09F8034F#098C410000D8FFFF
(1653791104.340942) can1 09F8014F#A6B0A3EA58DEFD67
(1653791104.341507) can1 09F8034F#09A04B0000D4FFFF
(1653791104.440964) can1 09F8014F#A6B0A3EA58DEFD67
(1653791104.441498) can1 09F8034F#09B45B0000C9FFFF
(1653791104.541551) can1 09F8014F#A6B0A3EA58DEFD67
(1653791104.542112) can1 0DF8054F#802B13C54A002030
(1653791104.542663) can1 0DF8054F#810540D0B19453CF
(1653791104.543230) can1 0DF8054F#8206FB004DE98804
(1653791104.543758) can1 0DF8054F#83633618D2B1B402
(1653791104.544336) can1 0DF8054F#840000000010FD08
(1653791104.544887) can1 0DF8054F#8564009C000D0C00
(1653791104.545473) can1 0DF8054F#860000FFFFFFFFFF
(1653791104.546617) can1 09F8034F#1300000000000000
(1653791104.640970) can1 09F8014F#A6B0A3EA58DEFD67
(1653791104.641536) can1 09F8034F#13140A0000EDFFFF
(1653791104.740960) can1 09F8014F#A7B0A3EA58DEFD67
(1653791104.741532) can1 09F8034F#13281A0000E7FFFF
(1653791104.840977) can1 09F8014F#A6B0A3EA58DEFD67
(1653791104.841544) can1 09F8034F#133C0D0000F3FFFF
(1653791104.940946) can1 09F8014F#A7B0A3EA58DEFD67
(1653791104.941510) can1 09F8034F#1350170000EDFFFF
(1653791105.051403) can1 09F8014F#A7B0A3EA57DEFD67
(1653791105.052544) can1 09F8034F#13642F0000E1FFFF
(1653791105.140924) can1 09F8014F#A7B0A3EA57DEFD67
(1653791105.141492) can1 09F8034F#13782B0000E4FFFF
(1653791105.241414) can1 09F8014F#A7B0A3EA57DEFD67
(1653791105.241980) can1 09F8034F#138C320000DFFFFF
(1653791105.340895) can1 09F8014F#A8B0A3EA57DEFD67
(1653791105.341462) can1 09F8034F#13A03F0000D1FFFF
(1653791105.440888) can1 09F8014F#A8B0A3EA58DEFD67
(1653791105.441448) can1 09F8034F#13B4420000E6FFFF
(1653791105.541462) can1 09F8014F#A8B0A3EA57DEFD67
(1653791105.542007) can1 0DF8054F#A02B1DC54A104730
(1653791105.542552) can1 0DF8054F#A10540D19A1754CF
(1653791105.543118) can1 0DF8054F#A206FB00222D3704
(1653791105.543670) can1 0DF8054F#A36336182EBAB402
(1653791105.544243) can1 0DF8054F#A40000000010FD08
(1653791105.544775) can1 0DF8054F#A564009C000D0C00
(1653791105.545350) can1 0DF8054F#A60000FFFFFFFFFF
(1653791105.546491) can1 09F8034F#1D00000000000000
(1653791105.640885) can1 09F8014F#A9B0A3EA57DEFD67
(1653791105.641448) can1 09F8034F#1D140B0000F4FFFF
(1653791105.740875) can1 09F8014F#A8B0A3EA57DEFD67
(1653791105.741451) can1 09F8034F#1D28010000F7FFFF
(1653791105.840878) can1 09F8014F#A8B0A3EA57DEFD67
(1653791105.841440) can1 09F8034F#1D3CFAFFFF080000
(1653791105.940908) can1 09F8014F#A8B0A3EA57DEFD67
(1653791105.941476) can1 09F8034F#1D50060000FCFFFF
(1653791106.051359) can1 09F8014F#A9B0A3EA56DEFD67
(1653791106.052495) can1 09F8034F#1D64180000E3FFFF
(1653791106.140904) can1 09F8014F#A9B0A3EA56DEFD67
(1653791106.141462) can1 09F8034F#1D78210000D5FFFF
(1653791106.240893) can1 09F8014F#AAB0A3EA55DEFD67
(1653791106.241456) can1 09F8034F#1D8C300000C4FFFF
(1653791106.340887) can1 09F8014F#AAB0A3EA55DEFD67
(1653791106.341488) can1 09F8034F#1DA0300000C7FFFF
(1653791106.440901) can1 09F8014F#AAB0A3EA55DEFD67
(1653791106.441436) can1 09F8034F#1DB43F0000AFFFFF
(1653791106.541421) can1 09F8014F#AAB0A3EA54DEFD67
(1653791106.541970) can1 0DF8054F#C02B27C54A206E30
(1653791106.542512) can1 0DF8054F#C10500F6A48A54CF
(1653791106.543077) can1 0DF8054F#C206FB003F8A7F03
(1653791106.543615) can1 0DF8054F#C3633618B913B502
(1653791106.544816) can1 0DF8054F#C40000000010FD08
(1653791106.545376) can1 0DF8054F#C564009C000D0C00
(1653791106.545914) can1 0DF8054F#C60000FFFFFFFFFF
(1653791106.547065) can1 09F8034F#2700000000000000
(1653791106.640828) can1 09F8014F#AAB0A3EA54DEFD67
(1653791106.641397) can1 09F8034F#2714050000010000
(1653791106.740822) can1 09F8014F#AAB0A3EA53DEFD67
(1653791106.741398) can1 09F8034F#27280A0000EEFFFF
(1653791106.840827) can1 09F8014F#AAB0A3EA53DEFD67
(1653791106.841397) can1 09F8034F#273C070000EFFFFF
(1653791106.940812) can1 09F8014F#ABB0A3EA53DEFD67
(1653791106.941376) can1 09F8034F#2750120000EAFFFF
(1653791107.051336) can1 09F8014F#ABB0A3EA53DEFD67
(1653791107.052490) can1 09F8034F#2764100000F3FFFF
(1653791107.140804) can1 09F8014F#ABB0A3EA53DEFD67
(1653791107.141381) can1 09F8034F#2778140000F3FFFF
(1653791107.240793) can1 09F8014F#ABB0A3EA54DEFD67
(1653791107.241365) can1 09F8034F#278C150000FFFFFF
(1653791107.340789) can1 09F8014F#ABB0A3EA53DEFD67
(1653791107.341357) can1 09F8034F#27A02A0000EFFFFF
(1653791107.440842) can1 09F8014F#ACB0A3EA53DEFD67
(1653791107.441404) can1 09F8034F#27B43A0000E1FFFF
(1653791107.541394) can1 09F8014F#ACB0A3EA53DEFD67
(1653791107.541934) can1 0DF8054F#E02B31C54A309530
(1653791107.542482) can1 0DF8054F#E1054022800155CF
(1653791107.543036) can1 0DF8054F#E206FB00B0643A03
(1653791107.543580) can1 0DF8054F#E3633618CF42B502
(1653791107.544166) can1 0DF8054F#E40000000010FD08
(1653791107.544711) can1 0DF8054F#E564009C000D0C00
(1653791107.545289) can1 0DF8054F#E60000FFFFFFFFFF
(1653791107.546433) can1 09F8034F#3100000000000000
(1653791107.640814) can1 09F8014F#ADB0A3EA52DEFD67
(1653791107.641383) can1 09F8034F#31140B0000F2FFFF
(1653791107.740808) can1 09F8014F#ADB0A3EA52DEFD67
(1653791107.741370) can1 09F8034F#31281D0000E8FFFF
(1653791107.840802) can1 09F8014F#ADB0A3EA52DEFD67
(1653791107.841371) can1 09F8034F#313C200000E8FFFF
(1653791107.940762) can1 09F8014F#ADB0A3EA52DEFD67
(1653791107.941326) can1 09F8034F#31501F0000EAFFFF
(1653791108.051272) can1 09F8014F#ADB0A3EA52DEFD67
(1653791108.052424) can1 09F8034F#31641F0000E6FFFF
(1653791108.140747) can1 09F8014F#ADB0A3EA52DEFD67
(1653791108.141319) can1 09F8034F#31781A0000E7FFFF
(1653791108.240749) can1 09F8014F#ADB0A3EA52DEFD67
(1653791108.241319) can1 09F8034F#318C1C0000E8FFFF
(1653791108.340739) can1 09F8014F#ADB0A3EA52DEFD67
(1653791108.341302) can1 09F8034F#31A0210000DCFFFF
(1653791108.440738) can1 09F8014F#ADB0A3EA52DEFD67
(1653791108.441307) can1 09F8034F#31B41B0000D7FFFF
(1653791108.541293) can1 09F8014F#ADB0A3EA52DEFD67
(1653791108.541842) can1 0DF8054F#002B3BC54A40BC30
(1653791108.542394) can1 0DF8054F#01054029662A55CF
(1653791108.542966) can1 0DF8054F#0206FB00E7CCF602
(1653791108.543534) can1 0DF8054F#036336184556B502
(1653791108.544070) can1 0DF8054F#040000000010FD08
(1653791108.544632) can1 0DF8054F#0564009C000D0C00
(1653791108.545212) can1 0DF8054F#060000FFFFFFFFFF
(1653791108.546373) can1 09F8034F#3B00000000000000
(1653791108.640764) can1 09F8014F#ADB0A3EA51DEFD67
(1653791108.641332) can1 09F8034F#3B14FEFFFFFCFFFF
(1653791108.740756) can1 09F8014F#ADB0A3EA51DEFD67
(1653791108.741337) can1 09F8034F#3B28FFFFFFF1FFFF
(1653791108.840751) can1 09F8014F#ADB0A3EA51DEFD67
(1653791108.841314) can1 09F8034F#3B3CF8FFFFE6FFFF
(1653791108.940772) can1 09F8014F#ADB0A3EA50DEFD67
(1653791108.941363) can1 09F8034F#3B50000000D5FFFF
